; CSV, generated by libsigrok4DSL 0.2.0 on Tue Oct 18 11:27:46 2022
; Channels (4/16)
; Sample rate: 20 MHz
; Sample count: 200.512 M Samples
Time(s), CLK, MOSI, CS, DC
0,0,0,1,1
0.1625631,0,1,1,1
0.16256315,1,1,1,1
0.1625634,1,1,1,0
0.16256925,1,1,0,0
0.3217643,1,1,1,1
0.3217644,1,1,1,0
0.3218782,1,1,0,0
0.32189555,1,1,1,1
0.3218956,1,1,1,0
0.3219042,1,1,0,0
0.3219389,1,1,1,0
0.32193895,1,1,1,1
0.321939,1,1,1,0
0.3219476,1,1,0,0
0.32195625,1,1,1,0
0.3219563,1,1,1,1
0.32195635,1,1,1,0
0.32196495,1,1,0,0
0.32197365,1,1,1,1
0.3219737,1,1,1,0
0.32200835,1,1,0,0
0.322017,1,1,1,1
0.3220171,1,1,1,0
0.32203435,1,1,0,0
0.32204305,1,1,1,1
0.32204315,1,1,1,0
0.32205175,1,1,0,0
0.3220604,1,1,1,1
0.3220605,1,1,1,0
0.3220951,1,1,0,0
0.3221038,1,1,1,1
0.3221039,1,1,1,0
0.32212115,1,1,0,0
0.3221298,1,1,1,1
0.3221299,1,1,1,0
0.3221385,1,1,0,0
0.32216455,1,1,1,1
0.32216465,1,1,1,0
0.3221732,1,1,0,0
0.3221819,1,1,1,1
0.322182,1,1,1,0
0.3222079,1,1,0,0
0.3222166,1,1,1,1
0.3222167,1,1,1,0
0.3222253,1,1,0,0
0.32223395,1,1,1,1
0.32223405,1,1,1,0
0.32224265,1,1,0,0
0.32226,1,1,1,1
0.3222601,1,1,1,0
0.32226865,1,1,0,0
0.32227735,1,1,1,1
0.32227745,1,1,1,0
0.3222947,1,1,0,0
0.32230335,1,1,1,1
0.32230345,1,1,1,0
0.32231205,1,1,0,0
0.3223294,1,1,1,1
0.3223295,1,1,1,0
0.32235545,1,1,0,0
0.3223641,1,1,1,0
0.32236415,1,1,1,1
0.3223642,1,1,1,0
0.32238145,1,1,1,1
0.3223815,1,1,0,0
0.32239015,1,1,1,1
0.32239025,1,1,1,0
0.32239885,1,1,0,0
0.32240755,1,1,1,1
0.3224076,1,1,1,0
0.32243355,1,1,0,0
0.3224509,1,1,1,1
0.322451,1,1,1,0
0.32246825,1,1,0,0
0.32247695,1,1,1,1
0.322477,1,1,1,0
0.32248565,1,1,0,0
0.3225377,1,1,1,1
0.32253775,1,1,1,0
0.32254635,1,1,0,0
0.3225637,1,1,1,1
0.3225638,1,1,1,0
0.3225724,1,1,0,0
0.3225811,1,1,1,1
0.3225812,1,1,1,0
0.32258975,1,1,0,0
0.32263315,1,1,1,1
0.32263325,1,1,1,0
0.3226418,1,1,0,0
0.3226505,1,1,1,1
0.3226506,1,1,1,0
0.3226592,1,1,0,0
0.32266785,1,1,1,1
0.32266795,1,1,1,0
0.32267655,1,1,0,0
0.3226939,1,1,1,1
0.322694,1,1,1,0
0.32270255,1,1,0,0
0.32271125,1,1,1,1
0.32271135,1,1,1,0
0.3227286,1,1,0,0
0.32273725,1,1,1,1
0.32273735,1,1,1,0
0.32274595,1,1,0,0
0.32275465,1,1,1,1
0.32275475,1,1,1,0
0.3227633,1,1,0,0
0.322772,1,1,1,1
0.3227721,1,1,1,0
0.32278935,1,1,0,0
0.322798,1,1,1,1
0.3227981,1,1,1,0
0.3228067,1,1,0,0
0.32282405,1,1,1,1
0.32282415,1,1,1,0
0.32283275,1,1,0,0
0.3228414,1,1,1,1
0.3228415,1,1,1,0
0.32286745,1,1,0,0
0.3228761,1,1,1,1
0.3228762,1,1,1,0
0.3228848,1,1,0,0
0.32289345,1,1,1,1
0.32289355,1,1,1,0
0.32290215,1,1,0,0
0.3229108,1,1,1,1
0.3229109,1,1,1,0
0.3229195,1,1,0,0
0.32293685,1,1,1,0
0.3229369,1,1,1,1
0.32293695,1,1,1,0
0.32294555,1,1,0,0
0.32298025,1,1,1,1
0.32298035,1,1,1,0
0.32298895,1,1,0,0
0.3229976,1,1,1,1
0.3229977,1,1,1,0
0.3230063,1,1,0,0
0.32302365,1,1,1,1
0.32302375,1,1,1,0
0.32303235,1,1,0,0
0.3230497,1,1,1,1
0.32304975,1,1,1,0
0.32306705,1,1,0,0
0.3230844,1,1,1,1
0.32308445,1,1,1,0
0.3230931,1,1,0,0
0.32314515,1,1,1,1
0.32314525,1,1,1,0
0.3231538,1,1,0,0
0.32317115,1,1,1,1
0.32317125,1,1,1,0
0.32317985,1,1,0,0
0.32318855,1,1,1,1
0.32318865,1,1,1,0
0.3231972,1,1,0,0
0.3232059,1,1,1,1
0.323206,1,1,1,0
0.32322325,1,1,0,0
0.3232406,1,1,1,1
0.3232407,1,1,1,0
0.32324925,1,1,0,0
0.32325795,1,1,1,1
0.32325805,1,1,1,0
0.32326665,1,1,0,0
0.3232753,1,1,1,1
0.3232754,1,1,1,0
0.32331,1,1,0,0
0.3233187,1,1,1,1
0.3233188,1,1,1,0
0.32333605,1,1,0,0
0.3233447,1,1,1,1
0.3233448,1,1,1,0
0.3233534,1,1,0,0
0.32337945,1,1,1,1
0.32337955,1,1,1,0
0.3233881,1,1,0,0
0.32340545,1,1,1,1
0.32340555,1,1,1,0
0.3234228,1,1,0,0
0.3234315,1,1,1,1
0.3234316,1,1,1,0
0.3234402,1,1,0,0
0.32344885,1,1,1,1
0.32344895,1,1,1,0
0.32345755,1,1,0,0
0.3234662,1,1,1,1
0.3234663,1,1,1,0
0.3234749,1,1,0,0
0.32348355,1,1,1,1
0.32348365,1,1,1,0
0.3235096,1,1,0,0
0.32351825,1,1,1,0
0.3235183,1,1,1,1
0.32351835,1,1,1,0
0.32352695,1,1,1,1
0.323527,1,1,0,0
0.323553,1,1,1,1
0.3235531,1,1,1,0
0.32357035,1,1,0,0
0.32357905,1,1,1,1
0.3235791,1,1,1,0
0.3235964,1,1,0,0
0.32360505,1,1,1,1
0.32360515,1,1,1,0
0.32361375,1,1,0,0
0.32362245,1,1,1,1
0.3236225,1,1,1,0
0.3236311,1,1,0,0
0.3236398,1,1,1,1
0.32363985,1,1,1,0
0.32364845,1,1,0,0
0.3236658,1,1,1,0
0.32366585,1,1,1,1
0.3236659,1,1,1,0
0.32368315,1,1,0,0
0.32369185,1,1,1,1
0.32369195,1,1,1,0
0.32370055,1,1,0,0
0.3237092,1,1,1,0
0.32370925,1,1,1,1
0.3237093,1,1,1,0
0.32372655,1,1,0,0
0.3237439,1,1,1,1
0.323744,1,1,1,0
0.32376995,1,1,0,0
0.3237786,1,1,1,1
0.3237787,1,1,1,0
0.3237873,1,1,0,0
0.32380465,1,1,1,1
0.32380475,1,1,1,0
0.3238307,1,1,0,0
0.32383935,1,1,1,1
0.32383945,1,1,1,0
0.32384805,1,1,0,0
0.3238654,1,1,1,1
0.3238655,1,1,1,0
0.3238741,1,1,0,0
0.32389145,1,1,1,1
0.32389155,1,1,1,0
0.32391745,1,1,0,0
0.32392615,1,1,1,1
0.32392625,1,1,1,0
0.3239348,1,1,0,0
0.32395215,1,1,1,1
0.32395225,1,1,1,0
0.32396085,1,1,0,0
0.3239782,1,1,1,1
0.3239783,1,1,1,0
0.32400425,1,1,0,0
0.3240129,1,1,1,1
0.324013,1,1,1,0
0.3240216,1,1,0,0
0.32403895,1,1,1,1
0.32403905,1,1,1,0
0.32404765,1,1,0,0
0.3240563,1,1,1,1
0.3240564,1,1,1,0
0.324065,1,1,0,0
0.32407365,1,1,1,0
0.3240737,1,1,1,1
0.32407375,1,1,1,0
0.324091,1,1,0,0
0.3241257,1,1,1,0
0.32412575,1,1,1,1
0.3241258,1,1,1,0
0.32413445,1,1,0,0
0.3241518,1,1,1,1
0.32415185,1,1,1,0
0.32416045,1,1,0,0
0.32416915,1,1,1,1
0.3241692,1,1,1,0
0.3241778,1,1,0,0
0.3242125,1,1,1,0
0.32421255,1,1,1,1
0.3242126,1,1,1,0
0.3242212,1,1,0,0
0.3242299,1,1,1,1
0.32422995,1,1,1,0
0.32423855,1,1,0,0
0.32424725,1,1,1,1
0.32424735,1,1,1,0
0.3242646,1,1,0,0
0.32427325,1,1,1,0
0.3242733,1,1,1,1
0.32427335,1,1,1,0
0.32428195,1,1,0,0
0.3242993,1,1,1,1
0.3242994,1,1,1,0
0.324308,1,1,0,0
0.32431665,1,1,1,1
0.32431675,1,1,1,0
0.32432535,1,1,0,0
0.324334,1,1,1,1
0.3243341,1,1,1,0
0.32435135,1,1,0,0
0.32436005,1,1,1,1
0.32436015,1,1,1,0
0.3243687,1,1,0,0
0.32438605,1,1,1,1
0.32438615,1,1,1,0
0.32439475,1,1,0,0
0.32440345,1,1,1,1
0.32440355,1,1,1,0
0.3244121,1,1,0,0
0.3244208,1,1,1,1
0.3244209,1,1,1,0
0.32443815,1,1,0,0
0.3244468,1,1,1,1
0.3244469,1,1,1,0
0.3244555,1,1,0,0
0.32447285,1,1,1,1
0.32447295,1,1,1,0
0.32448155,1,1,0,0
0.3244902,1,1,1,1
0.3244903,1,1,1,0
0.3244989,1,1,0,0
0.32450755,1,1,1,1
0.32450765,1,1,1,0
0.3245249,1,1,0,0
0.3245336,1,1,1,1
0.3245337,1,1,1,0
0.32454225,1,1,0,0
0.3245596,1,1,1,1
0.3245597,1,1,1,0
0.3245683,1,1,0,0
0.324577,1,1,1,1
0.3245771,1,1,1,0
0.32458565,1,1,0,0
0.32459435,1,1,1,1
0.32459445,1,1,1,0
0.3246117,1,1,0,0
0.32462035,1,1,1,1
0.32462045,1,1,1,0
0.32462905,1,1,0,0
0.3246464,1,1,1,1
0.3246465,1,1,1,0
0.3246551,1,1,0,0
0.32466375,1,1,1,0
0.3246638,1,1,1,1
0.32466385,1,1,1,0
0.32467245,1,1,0,0
0.3246811,1,1,1,0
0.32468115,1,1,1,1
0.3246812,1,1,1,0
0.32469845,1,1,1,1
0.3246985,1,1,0,0
0.32470715,1,1,1,1
0.32470725,1,1,1,0
0.32471585,1,1,0,0
0.3247332,1,1,1,1
0.32473325,1,1,1,0
0.3247419,1,1,0,0
0.32475055,1,1,1,1
0.32475065,1,1,1,0
0.32475925,1,1,0,0
0.3247679,1,1,1,1
0.324768,1,1,1,0
0.32478525,1,1,0,0
0.32479395,1,1,1,1
0.324794,1,1,1,0
0.3248026,1,1,0,0
0.32481995,1,1,1,0
0.32482,1,1,1,1
0.32482005,1,1,1,0
0.32482865,1,1,0,0
0.32483735,1,1,1,1
0.32483745,1,1,1,0
0.324846,1,1,0,0
0.3248547,1,1,1,1
0.32485475,1,1,1,0
0.32487205,1,1,0,0
0.3248807,1,1,1,1
0.3248808,1,1,1,0
0.3248894,1,1,0,0
0.32490675,1,1,1,1
0.32490685,1,1,1,0
0.32491545,1,1,0,0
0.3249241,1,1,1,1
0.3249242,1,1,1,0
0.3249328,1,1,0,0
0.32494145,1,1,1,1
0.32494155,1,1,1,0
0.3249588,1,1,0,0
0.3249675,1,1,1,1
0.3249676,1,1,1,0
0.32497615,1,1,0,0
0.3249935,1,1,1,1
0.3249936,1,1,1,0
0.3250022,1,1,0,0
0.3250109,1,1,1,1
0.325011,1,1,1,0
0.32501955,1,1,0,0
0.32502825,1,1,1,1
0.32502835,1,1,1,0
0.3250456,1,1,0,0
0.32505425,1,1,1,1
0.32505435,1,1,1,0
0.32506295,1,1,0,0
0.3250803,1,1,1,1
0.3250804,1,1,1,0
0.325089,1,1,0,0
0.32509765,1,1,1,1
0.32509775,1,1,1,0
0.32510635,1,1,0,0
0.325115,1,1,1,1
0.3251151,1,1,1,0
0.32513235,1,1,0,0
0.32514105,1,1,1,1
0.32514115,1,1,1,0
0.3251497,1,1,0,0
0.32516705,1,1,1,1
0.32516715,1,1,1,0
0.32517575,1,1,0,0
0.32518445,1,1,1,1
0.32518455,1,1,1,0
0.3251931,1,1,0,0
0.3252018,1,1,1,1
0.3252019,1,1,1,0
0.32521915,1,1,0,0
0.3252278,1,1,1,0
0.32522785,1,1,1,1
0.3252279,1,1,1,0
0.3252365,1,1,0,0
0.32525385,1,1,1,1
0.32525395,1,1,1,0
0.32526255,1,1,0,0
0.3252712,1,1,1,0
0.32527125,1,1,1,1
0.3252713,1,1,1,0
0.3252799,1,1,0,0
0.3252886,1,1,1,1
0.32528865,1,1,1,0
0.32530595,1,1,0,0
0.3253146,1,1,1,1
0.3253147,1,1,1,0
0.3253233,1,1,0,0
0.32534065,1,1,1,1
0.3253407,1,1,1,0
0.32534935,1,1,0,0
0.325358,1,1,1,0
0.32535805,1,1,1,1
0.3253581,1,1,1,0
0.3253667,1,1,0,0
0.32537535,1,1,1,0
0.3253754,1,1,1,1
0.32537545,1,1,1,0
0.3253927,1,1,0,0
0.3254014,1,1,1,1
0.32540145,1,1,1,0
0.32541005,1,1,0,0
0.3254274,1,1,1,0
0.32542745,1,1,1,1
0.3254275,1,1,1,0
0.3254361,1,1,0,0
0.3254448,1,1,1,1
0.3254449,1,1,1,0
0.32545345,1,1,0,0
0.32546215,1,1,1,1
0.32546225,1,1,1,0
0.3254795,1,1,0,0
0.32548815,1,1,1,1
0.32548825,1,1,1,0
0.32549685,1,1,0,0
0.3255142,1,1,1,1
0.3255143,1,1,1,0
0.3255229,1,1,0,0
0.32553155,1,1,1,1
0.32553165,1,1,1,0
0.32554025,1,1,0,0
0.3255489,1,1,1,1
0.325549,1,1,1,0
0.32556625,1,1,0,0
0.32557495,1,1,1,1
0.32557505,1,1,1,0
0.3255836,1,1,0,0
0.32560095,1,1,1,1
0.32560105,1,1,1,0
0.32560965,1,1,0,0
0.32561835,1,1,1,1
0.32561845,1,1,1,0
0.325627,1,1,0,0
0.3256357,1,1,1,1
0.3256358,1,1,1,0
0.32565305,1,1,0,0
0.3256617,1,1,1,1
0.3256618,1,1,1,0
0.3256704,1,1,0,0
0.32568775,1,1,1,1
0.32568785,1,1,1,0
0.32569645,1,1,0,0
0.3257051,1,1,1,1
0.3257052,1,1,1,0
0.3257138,1,1,0,0
0.32572245,1,1,1,1
0.32572255,1,1,1,0
0.3257398,1,1,0,0
0.3257485,1,1,1,1
0.3257486,1,1,1,0
0.32575715,1,1,0,0
0.3257745,1,1,1,1
0.3257746,1,1,1,0
0.3257832,1,1,0,0
0.3257919,1,1,1,1
0.325792,1,1,1,0
0.32580055,1,1,0,0
0.32580925,1,1,1,1
0.32580935,1,1,1,0
0.3258266,1,1,0,0
0.32583525,1,1,1,0
0.3258353,1,1,1,1
0.32583535,1,1,1,0
0.32584395,1,1,0,0
0.3258613,1,1,1,1
0.3258614,1,1,1,0
0.32587,1,1,0,0
0.3258787,1,1,1,1
0.32587875,1,1,1,0
0.32588735,1,1,0,0
0.32589605,1,1,1,1
0.3258961,1,1,1,0
0.3259134,1,1,0,0
0.32592205,1,1,1,1
0.32592215,1,1,1,0
0.32593075,1,1,0,0
0.3259481,1,1,1,1
0.32594815,1,1,1,0
0.3259568,1,1,0,0
0.32596545,1,1,1,0
0.3259655,1,1,1,1
0.32596555,1,1,1,0
0.32597415,1,1,0,0
0.3259828,1,1,1,0
0.32598285,1,1,1,1
0.3259829,1,1,1,0
0.32600015,1,1,0,0
0.32600885,1,1,1,1
0.32600895,1,1,1,0
0.3260175,1,1,0,0
0.32603485,1,1,1,1
0.32603495,1,1,1,0
0.32604355,1,1,0,0
0.32605225,1,1,1,1
0.32605235,1,1,1,0
0.3260609,1,1,0,0
0.3260696,1,1,1,1
0.3260697,1,1,1,0
0.32608695,1,1,0,0
0.3260956,1,1,1,1
0.3260957,1,1,1,0
0.3261043,1,1,0,0
0.32612165,1,1,1,1
0.32612175,1,1,1,0
0.32613035,1,1,0,0
0.326139,1,1,1,1
0.3261391,1,1,1,0
0.3261477,1,1,0,0
0.32615635,1,1,1,1
0.32615645,1,1,1,0
0.3261737,1,1,0,0
0.3261824,1,1,1,1
0.3261825,1,1,1,0
0.32619105,1,1,0,0
0.3262084,1,1,1,1
0.3262085,1,1,1,0
0.3262171,1,1,0,0
0.3262258,1,1,1,1
0.3262259,1,1,1,0
0.32623445,1,1,0,0
0.32624315,1,1,1,1
0.32624325,1,1,1,0
0.3262605,1,1,0,0
0.32626915,1,1,1,1
0.32626925,1,1,1,0
0.32627785,1,1,0,0
0.3262952,1,1,1,1
0.3262953,1,1,1,0
0.3263039,1,1,0,0
0.32631255,1,1,1,1
0.32631265,1,1,1,0
0.32632125,1,1,0,0
0.3263299,1,1,1,1
0.32633,1,1,1,0
0.32634725,1,1,0,0
0.32635595,1,1,1,1
0.32635605,1,1,1,0
0.3263646,1,1,0,0
0.32638195,1,1,1,0
0.326382,1,1,1,1
0.32638205,1,1,1,0
0.32639065,1,1,0,0
0.32639935,1,1,1,1
0.32639945,1,1,1,0
0.326408,1,1,1,1
0.32640805,1,1,0,0
0.3264167,1,1,1,1
0.3264168,1,1,1,0
0.32643405,1,1,0,0
0.32644275,1,1,1,1
0.3264428,1,1,1,0
0.3264514,1,1,0,0
0.32646875,1,1,1,1
0.32646885,1,1,1,0
0.32647745,1,1,0,0
0.32648615,1,1,1,1
0.3264862,1,1,1,0
0.3264948,1,1,0,0
0.3265035,1,1,1,1
0.32650355,1,1,1,0
0.32652085,1,1,0,0
0.3265295,1,1,1,0
0.32652955,1,1,1,1
0.3265296,1,1,1,0
0.3265382,1,1,0,0
0.32655555,1,1,1,1
0.3265556,1,1,1,0
0.32656425,1,1,0,0
0.3265729,1,1,1,0
0.32657295,1,1,1,1
0.326573,1,1,1,0
0.3265816,1,1,0,0
0.32659025,1,1,1,0
0.3265903,1,1,1,1
0.32659035,1,1,1,0
0.3266076,1,1,0,0
0.3266163,1,1,1,1
0.3266164,1,1,1,0
0.32662495,1,1,0,0
0.3266423,1,1,1,1
0.3266424,1,1,1,0
0.326651,1,1,0,0
0.3266597,1,1,1,1
0.32665975,1,1,1,0
0.32666835,1,1,0,0
0.32667705,1,1,1,1
0.32667715,1,1,1,0
0.3266944,1,1,0,0
0.32670305,1,1,1,1
0.32670315,1,1,1,0
0.32671175,1,1,0,0
0.3267291,1,1,1,1
0.3267292,1,1,1,0
0.3267378,1,1,0,0
0.32674645,1,1,1,1
0.32674655,1,1,1,0
0.32675515,1,1,0,0
0.3267638,1,1,1,1
0.3267639,1,1,1,0
0.32678115,1,1,0,0
0.32678985,1,1,1,1
0.32678995,1,1,1,0
0.3267985,1,1,0,0
0.32681585,1,1,1,1
0.32681595,1,1,1,0
0.32682455,1,1,0,0
0.32683325,1,1,1,1
0.32683335,1,1,1,0
0.3268419,1,1,0,0
0.3268506,1,1,1,1
0.3268507,1,1,1,0
0.32686795,1,1,0,0
0.3268766,1,1,1,1
0.3268767,1,1,1,0
0.3268853,1,1,0,0
0.32690265,1,1,1,1
0.32690275,1,1,1,0
0.32691135,1,1,0,0
0.32692,1,1,1,1
0.3269201,1,1,1,0
0.3269287,1,1,0,0
0.32693735,1,1,1,1
0.32693745,1,1,1,0
0.3269547,1,1,0,0
0.3269634,1,1,1,1
0.3269635,1,1,1,0
0.3269721,1,1,0,0
0.3269894,1,1,1,0
0.32698945,1,1,1,1
0.3269895,1,1,1,0
0.3269981,1,1,1,1
0.32699815,1,1,0,0
0.3270068,1,1,1,1
0.3270069,1,1,1,0
0.3270155,1,1,0,0
0.32702415,1,1,1,1
0.32702425,1,1,1,0
0.3270415,1,1,0,0
0.3270502,1,1,1,1
0.32705025,1,1,1,0
0.32705885,1,1,0,0
0.3270762,1,1,1,1
0.3270763,1,1,1,0
0.3270849,1,1,0,0
0.3270936,1,1,1,1
0.32709365,1,1,1,0
0.32710225,1,1,0,0
0.32711095,1,1,1,1
0.327111,1,1,1,0
0.3271283,1,1,0,0
0.32713695,1,1,1,0
0.327137,1,1,1,1
0.32713705,1,1,1,0
0.32714565,1,1,0,0
0.327163,1,1,1,1
0.32716305,1,1,1,0
0.3271717,1,1,0,0
0.32718035,1,1,1,1
0.32718045,1,1,1,0
0.32718905,1,1,0,0
0.3271977,1,1,1,1
0.3271978,1,1,1,0
0.32721505,1,1,0,0
0.32722375,1,1,1,1
0.32722385,1,1,1,0
0.3272324,1,1,0,0
0.32724975,1,1,1,1
0.32724985,1,1,1,0
0.32725845,1,1,0,0
0.32726715,1,1,1,1
0.32726725,1,1,1,0
0.3272758,1,1,0,0
0.3272845,1,1,1,1
0.3272846,1,1,1,0
0.32730185,1,1,0,0
0.3273105,1,1,1,1
0.3273106,1,1,1,0
0.3273192,1,1,0,0
0.32733655,1,1,1,1
0.32733665,1,1,1,0
0.32734525,1,1,0,0
0.3273539,1,1,1,1
0.327354,1,1,1,0
0.3273626,1,1,0,0
0.32737125,1,1,1,1
0.32737135,1,1,1,0
0.3273886,1,1,0,0
0.3273973,1,1,1,1
0.3273974,1,1,1,0
0.32740595,1,1,0,0
0.3274233,1,1,1,1
0.3274234,1,1,1,0
0.327432,1,1,0,0
0.3274407,1,1,1,1
0.3274408,1,1,1,0
0.32744935,1,1,0,0
0.32745805,1,1,1,1
0.32745815,1,1,1,0
0.3274754,1,1,0,0
0.32748405,1,1,1,1
0.32748415,1,1,1,0
0.32749275,1,1,0,0
0.3275101,1,1,1,1
0.3275102,1,1,1,0
0.3275188,1,1,0,0
0.32752745,1,1,1,0
0.3275275,1,1,1,1
0.32752755,1,1,1,0
0.32753615,1,1,0,0
0.3275448,1,1,1,0
0.32754485,1,1,1,1
0.3275449,1,1,1,0
0.32756215,1,1,1,1
0.3275622,1,1,0,0
0.32757085,1,1,1,1
0.32757095,1,1,1,0
0.3275795,1,1,1,1
0.32757955,1,1,0,0
0.3275969,1,1,1,1
0.32759695,1,1,1,0
0.3276056,1,1,0,0
0.32761425,1,1,1,1
0.32761435,1,1,1,0
0.32762295,1,1,0,0
0.3276316,1,1,1,1
0.3276317,1,1,1,0
0.32764895,1,1,0,0
0.32765765,1,1,1,1
0.3276577,1,1,1,0
0.3276663,1,1,0,0
0.32768365,1,1,1,0
0.3276837,1,1,1,1
0.32768375,1,1,1,0
0.32769235,1,1,0,0
0.32770105,1,1,1,1
0.3277011,1,1,1,0
0.3277097,1,1,0,0
0.3277184,1,1,1,1
0.3277185,1,1,1,0
0.32773575,1,1,0,0
0.3277444,1,1,1,0
0.32774445,1,1,1,1
0.3277445,1,1,1,0
0.3277531,1,1,0,0
0.32777045,1,1,1,1
0.32777055,1,1,1,0
0.32777915,1,1,0,0
0.3277878,1,1,1,1
0.3277879,1,1,1,0
0.3277965,1,1,0,0
0.32780515,1,1,1,1
0.32780525,1,1,1,0
0.3278225,1,1,0,0
0.3278312,1,1,1,1
0.3278313,1,1,1,0
0.32783985,1,1,0,0
0.3278572,1,1,1,1
0.3278573,1,1,1,0
0.3278659,1,1,0,0
0.3278746,1,1,1,1
0.3278747,1,1,1,0
0.32788325,1,1,0,0
0.32789195,1,1,1,1
0.32789205,1,1,1,0
0.3279093,1,1,0,0
0.32791795,1,1,1,1
0.32791805,1,1,1,0
0.32792665,1,1,0,0
0.327944,1,1,1,1
0.3279441,1,1,1,0
0.3279527,1,1,0,0
0.32796135,1,1,1,1
0.32796145,1,1,1,0
0.32797005,1,1,0,0
0.3279787,1,1,1,1
0.3279788,1,1,1,0
0.32799605,1,1,0,0
0.32800475,1,1,1,1
0.32800485,1,1,1,0
0.3280134,1,1,0,0
0.32803075,1,1,1,1
0.32803085,1,1,1,0
0.32803945,1,1,0,0
0.32804815,1,1,1,1
0.32804825,1,1,1,0
0.3280568,1,1,0,0
0.3280655,1,1,1,1
0.3280656,1,1,1,0
0.32808285,1,1,0,0
0.3280915,1,1,1,1
0.3280916,1,1,1,0
0.3281002,1,1,0,0
0.32811755,1,1,1,1
0.32811765,1,1,1,0
0.32812625,1,1,0,0
0.3281349,1,1,1,0
0.32813495,1,1,1,1
0.328135,1,1,1,0
0.3281436,1,1,0,0
0.32815225,1,1,1,0
0.3281523,1,1,1,1
0.32815235,1,1,1,0
0.32816965,1,1,0,0
0.3281783,1,1,1,1
0.3281784,1,1,1,0
0.328187,1,1,0,0
0.32820435,1,1,1,1
0.3282044,1,1,1,0
0.32821305,1,1,0,0
0.3282217,1,1,1,1
0.3282218,1,1,1,0
0.3282304,1,1,0,0
0.32823905,1,1,1,0
0.3282391,1,1,1,1
0.32823915,1,1,1,0
0.3282564,1,1,0,0
0.3282651,1,1,1,1
0.32826515,1,1,1,0
0.32827375,1,1,0,0
0.3282911,1,1,1,0
0.32829115,1,1,1,1
0.3282912,1,1,1,0
0.3282998,1,1,0,0
0.3283085,1,1,1,1
0.3283086,1,1,1,0
0.32831715,1,1,0,0
0.32832585,1,1,1,1
0.32832595,1,1,1,0
0.3283432,1,1,0,0
0.32835185,1,1,1,1
0.32835195,1,1,1,0
0.32836055,1,1,0,0
0.3283779,1,1,1,1
0.328378,1,1,1,0
0.3283866,1,1,0,0
0.32839525,1,1,1,1
0.32839535,1,1,1,0
0.32840395,1,1,0,0
0.3284126,1,1,1,1
0.3284127,1,1,1,0
0.32842995,1,1,0,0
0.32843865,1,1,1,1
0.32843875,1,1,1,0
0.3284473,1,1,0,0
0.32846465,1,1,1,1
0.32846475,1,1,1,0
0.32847335,1,1,0,0
0.32848205,1,1,1,1
0.32848215,1,1,1,0
0.3284907,1,1,0,0
0.3284994,1,1,1,1
0.3284995,1,1,1,0
0.32851675,1,1,0,0
0.3285254,1,1,1,1
0.3285255,1,1,1,0
0.3285341,1,1,0,0
0.32855145,1,1,1,1
0.32855155,1,1,1,0
0.32856015,1,1,0,0
0.3285688,1,1,1,1
0.3285689,1,1,1,0
0.3285775,1,1,0,0
0.32858615,1,1,1,1
0.32858625,1,1,1,0
0.3286035,1,1,0,0
0.3286122,1,1,1,1
0.3286123,1,1,1,0
0.32862085,1,1,0,0
0.3286382,1,1,1,1
0.3286383,1,1,1,0
0.3286469,1,1,0,0
0.3286556,1,1,1,1
0.3286557,1,1,1,0
0.32866425,1,1,0,0
0.32867295,1,1,1,1
0.32867305,1,1,1,0
0.3286903,1,1,0,0
0.32869895,1,1,1,0
0.328699,1,1,1,1
0.32869905,1,1,1,0
0.32870765,1,1,0,0
0.328725,1,1,1,1
0.3287251,1,1,1,0
0.3287337,1,1,0,0
0.3287424,1,1,1,1
0.32874245,1,1,1,0
0.32875105,1,1,0,0
0.32875975,1,1,1,1
0.3287598,1,1,1,0
0.3287771,1,1,0,0
0.32878575,1,1,1,1
0.32878585,1,1,1,0
0.32879445,1,1,0,0
0.3288118,1,1,1,1
0.32881185,1,1,1,0
0.3288205,1,1,0,0
0.32882915,1,1,1,0
0.3288292,1,1,1,1
0.32882925,1,1,1,0
0.32883785,1,1,0,0
0.3288465,1,1,1,0
0.32884655,1,1,1,1
0.3288466,1,1,1,0
0.32886385,1,1,0,0
0.32887255,1,1,1,1
0.3288726,1,1,1,0
0.3288812,1,1,0,0
0.32889855,1,1,1,1
0.32889865,1,1,1,0
0.32890725,1,1,0,0
0.32891595,1,1,1,1
0.328916,1,1,1,0
0.3289246,1,1,0,0
0.3289333,1,1,1,1
0.3289334,1,1,1,0
0.32895065,1,1,0,0
0.3289593,1,1,1,1
0.3289594,1,1,1,0
0.328968,1,1,0,0
0.32898535,1,1,1,1
0.32898545,1,1,1,0
0.32899405,1,1,0,0
0.3290027,1,1,1,1
0.3290028,1,1,1,0
0.3290114,1,1,0,0
0.32902005,1,1,1,1
0.32902015,1,1,1,0
0.3290374,1,1,0,0
0.3290461,1,1,1,1
0.3290462,1,1,1,0
0.32905475,1,1,0,0
0.3290721,1,1,1,1
0.3290722,1,1,1,0
0.3290808,1,1,0,0
0.3290895,1,1,1,1
0.3290896,1,1,1,0
0.32909815,1,1,0,0
0.32910685,1,1,1,1
0.32910695,1,1,1,0
0.3291242,1,1,0,0
0.32913285,1,1,1,1
0.32913295,1,1,1,0
0.32914155,1,1,0,0
0.3291589,1,1,1,1
0.329159,1,1,1,0
0.3291676,1,1,0,0
0.32917625,1,1,1,1
0.32917635,1,1,1,0
0.32918495,1,1,0,0
0.3291936,1,1,1,1
0.3291937,1,1,1,0
0.32921095,1,1,0,0
0.32921965,1,1,1,1
0.32921975,1,1,1,0
0.3292283,1,1,0,0
0.32924565,1,1,1,1
0.32924575,1,1,1,0
0.32925435,1,1,0,0
0.32926305,1,1,1,1
0.32926315,1,1,1,0
0.3292717,1,1,0,0
0.3292804,1,1,1,1
0.3292805,1,1,1,0
0.32929775,1,1,0,0
0.3293064,1,1,1,0
0.32930645,1,1,1,1
0.3293065,1,1,1,0
0.3293151,1,1,0,0
0.32933245,1,1,1,1
0.32933255,1,1,1,0
0.32934115,1,1,0,0
0.32934985,1,1,1,1
0.3293499,1,1,1,0
0.3293585,1,1,0,0
0.3293672,1,1,1,1
0.32936725,1,1,1,0
0.32938455,1,1,0,0
0.3293932,1,1,1,0
0.32939325,1,1,1,1
0.3293933,1,1,1,0
0.3294019,1,1,0,0
0.32941925,1,1,1,1
0.3294193,1,1,1,0
0.32942795,1,1,0,0
0.3294366,1,1,1,0
0.32943665,1,1,1,1
0.3294367,1,1,1,0
0.3294453,1,1,0,0
0.32945395,1,1,1,0
0.329454,1,1,1,1
0.32945405,1,1,1,0
0.3294713,1,1,0,0
0.329506,1,1,1,1
0.3295061,1,1,1,0
0.3295147,1,1,0,0
0.32953205,1,1,1,1
0.32953215,1,1,1,0
0.32954075,1,1,0,0
0.3295494,1,1,1,1
0.3295495,1,1,1,0
0.3295581,1,1,0,0
0.3295928,1,1,1,1
0.3295929,1,1,1,0
0.3296015,1,1,0,0
0.32961885,1,1,1,1
0.32961895,1,1,1,0
0.3296275,1,1,0,0
0.32964485,1,1,1,1
0.32964495,1,1,1,0
0.32965355,1,1,0,0
0.3296622,1,1,1,1
0.3296623,1,1,1,0
0.3296709,1,1,0,0
0.32967955,1,1,1,1
0.32967965,1,1,1,0
0.32968825,1,1,0,0
0.32969695,1,1,1,1
0.32969705,1,1,1,0
0.3297056,1,1,0,0
0.32972295,1,1,1,1
0.32972305,1,1,1,0
0.32973165,1,1,0,0
0.329749,1,1,1,1
0.3297491,1,1,1,0
0.32975765,1,1,0,0
